time	V(vin)	V(n001)
0.000000000000000e+000	0.000000e+000	5.000000e+000
9.999999960041972e-012	5.000000e-002	5.000149e+000
1.999999992008394e-011	1.000000e-001	5.000298e+000
3.999999984016789e-011	2.000000e-001	5.000596e+000
3.199999987213431e-010	1.600000e+000	5.004761e+000
6.399999974426862e-010	3.200000e+000	5.009474e+000
1.000000000000000e-009	5.000000e+000	5.014725e+000
1.000791886387829e-009	5.000000e+000	5.014725e+000
1.002375659163486e-009	5.000000e+000	5.014724e+000
5.289627442635733e-008	5.000000e+000	4.989751e+000
1.047933407391025e-007	5.000000e+000	4.964781e+000
1.598933464420826e-007	5.000000e+000	4.938271e+000
2.700933578480428e-007	5.000000e+000	4.885244e+000
4.437030772740190e-007	5.000000e+000	4.801703e+000
5.751150455926489e-007	5.000000e+000	4.738502e+000
7.404732609346708e-007	5.000000e+000	4.659067e+000
1.071189691618715e-006	5.000000e+000	4.500519e+000
1.732622552986802e-006	5.000000e+000	4.184693e+000
3.055488275722977e-006	5.000000e+000	3.558415e+000
4.628742256087910e-006	5.000000e+000	2.834258e+000
6.283356230918126e-006	5.000000e+000	2.132233e+000
8.013961372211625e-006	5.000000e+000	1.513927e+000
1.000759414439395e-005	5.000000e+000	9.873133e-001
1.285343730649134e-005	5.000000e+000	4.788427e-001
1.433768350171883e-005	5.000000e+000	3.086453e-001
1.558074109019488e-005	5.000000e+000	2.203443e-001
1.702704971965959e-005	5.000000e+000	1.495953e-001
1.856656309233059e-005	5.000000e+000	9.788472e-002
2.003916272059925e-005	5.000000e+000	6.475372e-002
2.145915403643619e-005	5.000000e+000	4.345396e-002
2.285171689124819e-005	5.000000e+000	2.940337e-002
2.424767511833923e-005	5.000000e+000	1.987714e-002
2.563363087589154e-005	5.000000e+000	1.346755e-002
2.702214266761250e-005	5.000000e+000	9.116822e-003
2.840267412006800e-005	5.000000e+000	6.183777e-003
2.978551417712436e-005	5.000000e+000	4.191722e-003
3.116372394187721e-005	5.000000e+000	2.844701e-003
3.254423158179425e-005	5.000000e+000	1.929354e-003
3.392172069836960e-005	5.000000e+000	1.309533e-003
3.530097241249949e-005	5.000000e+000	8.884202e-004
3.667818920844006e-005	5.000000e+000	6.030389e-004
3.805675645078024e-005	5.000000e+000	4.091846e-004
3.943394348931697e-005	5.000000e+000	2.787914e-004
4.098437899968277e-005	5.000000e+000	1.818499e-004
4.269848091174862e-005	5.000000e+000	1.139077e-004
4.484210485899756e-005	5.000000e+000	6.385653e-005
4.737672776479563e-005	5.000000e+000	3.233018e-005
5.074960876733600e-005	5.000000e+000	1.334804e-005
5.524741740018386e-005	5.000000e+000	4.173984e-006
6.213716404760833e-005	5.000000e+000	7.043222e-007
8.213716404760833e-005	5.000000e+000	1.832993e-009
1.164228783333227e-004	5.000000e+000	2.612344e-009
1.507085926190370e-004	5.000000e+000	3.214569e-009
1.849943069047513e-004	5.000000e+000	3.639667e-009
2.192800211904656e-004	5.000000e+000	3.887638e-009
2.535657354761799e-004	5.000000e+000	3.958483e-009
2.878514497618943e-004	5.000000e+000	3.852201e-009
3.221371640476085e-004	5.000000e+000	3.568793e-009
6.407085926190381e-004	5.000000e+000	3.568793e-009
9.592800211904675e-004	5.000000e+000	3.568793e-009
1.277851449761897e-003	5.000000e+000	3.568793e-009
1.596422878333327e-003	5.000000e+000	3.568793e-009
1.914994306904756e-003	5.000000e+000	3.568793e-009
2.233565735476186e-003	5.000000e+000	3.568793e-009
2.552137164047614e-003	5.000000e+000	3.568793e-009
5.000000000000000e-003	5.000000e+000	3.568793e-009
5.000001000000000e-003	5.000000e+000	3.568793e-009
5.000001002200000e-003	4.989000e+000	-3.408142e-005
5.000001006600001e-003	4.967000e+000	-1.022547e-004
5.000001138600001e-003	4.307000e+000	-2.147513e-003
5.000001279400002e-003	3.603000e+000	-4.326953e-003
5.000001561000004e-003	2.195000e+000	-8.653872e-003
5.000002000000000e-003	0.000000e+000	-1.533063e-002
5.000002000966133e-003	0.000000e+000	-1.533005e-002
5.000002002898398e-003	0.000000e+000	-1.532890e-002
5.000006524951090e-003	0.000000e+000	-1.262984e-002
5.000011047003782e-003	0.000000e+000	-9.931379e-003
5.000015569056475e-003	0.000000e+000	-7.233499e-003
5.000020091109168e-003	0.000000e+000	-4.536207e-003
5.000024613161860e-003	0.000000e+000	-1.839501e-003
5.000029135214553e-003	0.000000e+000	8.566186e-004
5.000033657267245e-003	0.000000e+000	3.552151e-003
5.000065315500624e-003	0.000000e+000	2.241025e-002
5.000120522609584e-003	0.000000e+000	5.525443e-002
5.000176473360428e-003	0.000000e+000	8.848656e-002
5.000266491364020e-003	0.000000e+000	1.418479e-001
5.000357874436116e-003	0.000000e+000	1.958785e-001
5.000458954626554e-003	0.000000e+000	2.554383e-001
5.000567325458918e-003	0.000000e+000	3.189881e-001
5.000784067123645e-003	0.000000e+000	4.450732e-001
5.001217550453099e-003	0.000000e+000	6.934615e-001
5.002084517112009e-003	0.000000e+000	1.176054e+000
5.003412058911194e-003	0.000000e+000	1.870596e+000
5.005149217794568e-003	0.000000e+000	2.675853e+000
5.006881288187478e-003	0.000000e+000	3.330560e+000
5.008740247102086e-003	0.000000e+000	3.858500e+000
5.010640673908448e-003	0.000000e+000	4.239232e+000
5.012730350473743e-003	0.000000e+000	4.516215e+000
5.015161832997926e-003	0.000000e+000	4.717590e+000
5.017721144934932e-003	0.000000e+000	4.841604e+000
5.020606653969704e-003	0.000000e+000	4.917443e+000
5.023816416647483e-003	0.000000e+000	4.959931e+000
5.027754111612192e-003	0.000000e+000	4.983304e+000
5.032562818063424e-003	0.000000e+000	4.994261e+000
5.039033958595572e-003	0.000000e+000	4.998612e+000
5.048028869660432e-003	0.000000e+000	4.999853e+000
5.058028869660431e-003	0.000000e+000	5.000001e+000
5.068028869660431e-003	0.000000e+000	5.000000e+000
8.698028869660283e-003	0.000000e+000	5.000000e+000
9.999999000000001e-003	0.000000e+000	5.000000e+000
1.000000000000000e-002	0.000000e+000	5.000000e+000
1.000000000961249e-002	4.806244e-002	5.000143e+000
1.000000002883746e-002	1.441873e-001	5.000430e+000
1.000000029798712e-002	1.489936e+000	5.004436e+000
1.000000060558673e-002	3.027934e+000	5.008975e+000
1.000000100000000e-002	5.000000e+000	5.014741e+000
1.000000100086758e-002	5.000000e+000	5.014740e+000
1.000000100260273e-002	5.000000e+000	5.014740e+000
1.000005785663420e-002	5.000000e+000	4.987380e+000
1.000011471413597e-002	5.000000e+000	4.960024e+000
1.000017167443113e-002	5.000000e+000	4.932619e+000
1.000028559502145e-002	5.000000e+000	4.877800e+000
1.000045281041862e-002	5.000000e+000	4.797337e+000
1.000057854329114e-002	5.000000e+000	4.736869e+000
1.000074678706276e-002	5.000000e+000	4.656051e+000
1.000108327460599e-002	5.000000e+000	4.494749e+000
1.000175624969246e-002	5.000000e+000	4.173458e+000
1.000310219986539e-002	5.000000e+000	3.536556e+000
1.000468318145848e-002	5.000000e+000	2.809932e+000
1.000633005574932e-002	5.000000e+000	2.113894e+000
1.000807373276239e-002	5.000000e+000	1.495278e+000
1.001007470742594e-002	5.000000e+000	9.730073e-001
1.001297174948071e-002	5.000000e+000	4.650503e-001
1.001447296876749e-002	5.000000e+000	2.973003e-001
1.001571207250604e-002	5.000000e+000	2.122527e-001
1.001715677774414e-002	5.000000e+000	1.440845e-001
1.001868464136312e-002	5.000000e+000	9.455631e-002
1.002015798012462e-002	5.000000e+000	6.254704e-002
1.002157386070471e-002	5.000000e+000	4.201909e-002
1.002296875349071e-002	5.000000e+000	2.841530e-002
1.002436110438579e-002	5.000000e+000	1.922710e-002
1.002574835575590e-002	5.000000e+000	1.302350e-002
1.002713665452684e-002	5.000000e+000	8.816279e-003
1.002851767887155e-002	5.000000e+000	5.978955e-003
1.002989974041613e-002	5.000000e+000	4.053677e-003
1.003127822815521e-002	5.000000e+000	2.750832e-003
1.003265833745832e-002	5.000000e+000	1.865882e-003
1.003403611421975e-002	5.000000e+000	1.266355e-003
1.003541509045215e-002	5.000000e+000	8.591873e-004
1.003679250211425e-002	5.000000e+000	5.831667e-004
1.003817087451295e-002	5.000000e+000	3.957204e-004
1.003954820718154e-002	5.000000e+000	2.692696e-004
1.004104016779510e-002	5.000000e+000	1.781413e-004
1.004267852244056e-002	5.000000e+000	1.138255e-004
1.004470737111504e-002	5.000000e+000	6.572630e-005
1.004708653558490e-002	5.000000e+000	3.463476e-005
1.005021024312636e-002	5.000000e+000	1.518906e-005
1.005428396585464e-002	5.000000e+000	5.260452e-006
1.006034624974613e-002	5.000000e+000	1.152449e-006
1.007019229706914e-002	5.000000e+000	5.282938e-008
1.500000000000173e-002	5.000000e+000	3.568793e-009
1.500000100000000e-002	5.000000e+000	3.568793e-009
1.500000100220000e-002	4.989000e+000	-3.408135e-005
1.500000100659999e-002	4.967000e+000	-1.022545e-004
1.500000113859976e-002	4.307001e+000	-2.147510e-003
1.500000127939952e-002	3.603002e+000	-4.326945e-003
1.500000156099904e-002	2.195005e+000	-8.653858e-003
1.500000200000000e-002	0.000000e+000	-1.533063e-002
1.500000200096614e-002	0.000000e+000	-1.533005e-002
1.500000200289841e-002	0.000000e+000	-1.532890e-002
1.500000652496101e-002	0.000000e+000	-1.262984e-002
1.500001104702361e-002	0.000000e+000	-9.931366e-003
1.500001556908622e-002	0.000000e+000	-7.233481e-003
1.500002009114882e-002	0.000000e+000	-4.536182e-003
1.500002461321142e-002	0.000000e+000	-1.839470e-003
1.500002913527403e-002	0.000000e+000	8.566546e-004
1.500003365733663e-002	0.000000e+000	3.552193e-003
1.500006531563940e-002	0.000000e+000	2.241033e-002
1.500012052236562e-002	0.000000e+000	5.525429e-002
1.500017647323662e-002	0.000000e+000	8.848649e-002
1.500026649121871e-002	0.000000e+000	1.418478e-001
1.500035787429783e-002	0.000000e+000	1.958784e-001
1.500045895422921e-002	0.000000e+000	2.554380e-001
1.500056732500262e-002	0.000000e+000	3.189878e-001
1.500078406654944e-002	0.000000e+000	4.450729e-001
1.500121754964307e-002	0.000000e+000	6.934610e-001
1.500208451583033e-002	0.000000e+000	1.176053e+000
1.500341205724986e-002	0.000000e+000	1.870595e+000
1.500514921516378e-002	0.000000e+000	2.675852e+000
1.500688128531547e-002	0.000000e+000	3.330559e+000
1.500874024443173e-002	0.000000e+000	3.858500e+000
1.501064067099719e-002	0.000000e+000	4.239232e+000
1.501273035028978e-002	0.000000e+000	4.516215e+000
1.501516183434236e-002	0.000000e+000	4.717591e+000
1.501772114671536e-002	0.000000e+000	4.841604e+000
1.502060665538867e-002	0.000000e+000	4.917443e+000
1.502381641834202e-002	0.000000e+000	4.959931e+000
1.502775411356534e-002	0.000000e+000	4.983304e+000
1.503256282097854e-002	0.000000e+000	4.994261e+000
1.503903396226479e-002	0.000000e+000	4.998612e+000
1.504802887552643e-002	0.000000e+000	4.999853e+000
1.505802887552643e-002	0.000000e+000	5.000001e+000
1.506802887552643e-002	0.000000e+000	5.000000e+000
1.665802887552637e-002	0.000000e+000	5.000000e+000
1.999999900000000e-002	0.000000e+000	5.000000e+000
2.000000000000000e-002	0.000000e+000	5.000000e+000
2.000000000961249e-002	4.806244e-002	5.000143e+000
2.000000002883746e-002	1.441873e-001	5.000430e+000
2.000000029798712e-002	1.489936e+000	5.004436e+000
2.000000060558672e-002	3.027934e+000	5.008975e+000
2.000000100000000e-002	5.000000e+000	5.014741e+000
2.000000100086758e-002	5.000000e+000	5.014740e+000
2.000000100260273e-002	5.000000e+000	5.014740e+000
2.000005785663767e-002	5.000000e+000	4.987380e+000
2.000011471414291e-002	5.000000e+000	4.960024e+000
2.000017167443969e-002	5.000000e+000	4.932618e+000
2.000028559503325e-002	5.000000e+000	4.877800e+000
2.000045281042530e-002	5.000000e+000	4.797337e+000
2.000057854330074e-002	5.000000e+000	4.736869e+000
2.000074678707249e-002	5.000000e+000	4.656051e+000
2.000108327461600e-002	5.000000e+000	4.494749e+000
2.000175624970301e-002	5.000000e+000	4.173458e+000
2.000310219987705e-002	5.000000e+000	3.536556e+000
2.000468318147809e-002	5.000000e+000	2.809932e+000
2.000633005576675e-002	5.000000e+000	2.113894e+000
2.000807373278508e-002	5.000000e+000	1.495278e+000
2.001007470745128e-002	5.000000e+000	9.730073e-001
2.001297174952549e-002	5.000000e+000	4.650503e-001
2.001447296881833e-002	5.000000e+000	2.973003e-001
2.001571207255527e-002	5.000000e+000	2.122527e-001
2.001715677779282e-002	5.000000e+000	1.440845e-001
2.001868464140752e-002	5.000000e+000	9.455631e-002
2.002015798016932e-002	5.000000e+000	6.254704e-002
2.002157386074788e-002	5.000000e+000	4.201909e-002
2.002296875353463e-002	5.000000e+000	2.841530e-002
2.002436110442866e-002	5.000000e+000	1.922710e-002
2.002574835579933e-002	5.000000e+000	1.302350e-002
2.002713665456955e-002	5.000000e+000	8.816279e-003
2.002851767891471e-002	5.000000e+000	5.978955e-003
2.002989974045882e-002	5.000000e+000	4.053677e-003
2.003127822819824e-002	5.000000e+000	2.750832e-003
2.003265833750102e-002	5.000000e+000	1.865882e-003
2.003403611426269e-002	5.000000e+000	1.266355e-003
2.003541509049486e-002	5.000000e+000	8.591872e-004
2.003679250215714e-002	5.000000e+000	5.831667e-004
2.003817087455568e-002	5.000000e+000	3.957204e-004
2.003954820722440e-002	5.000000e+000	2.692696e-004
2.004104016773701e-002	5.000000e+000	1.781413e-004
2.004267852225135e-002	5.000000e+000	1.138255e-004
2.004470737072862e-002	5.000000e+000	6.572631e-005
2.004708653493211e-002	5.000000e+000	3.463477e-005
2.005021024205136e-002	5.000000e+000	1.518906e-005
2.005428396407137e-002	5.000000e+000	5.260455e-006
2.006034624661039e-002	5.000000e+000	1.152450e-006
2.007019229092957e-002	5.000000e+000	5.282951e-008
2.500000000000000e-002	5.000000e+000	3.568793e-009
2.500000100000000e-002	5.000000e+000	3.568793e-009
2.500000100220000e-002	4.989000e+000	-3.408143e-005
2.500000100660000e-002	4.967000e+000	-1.022547e-004
2.500000106820000e-002	4.659000e+000	-1.056716e-003
2.500000113860000e-002	4.307000e+000	-2.147513e-003
2.500000127940000e-002	3.603000e+000	-4.326953e-003
2.500000156100000e-002	2.195000e+000	-8.653872e-003
2.500000200000000e-002	0.000000e+000	-1.533063e-002
2.500000200096613e-002	0.000000e+000	-1.533005e-002
2.500000200289840e-002	0.000000e+000	-1.532890e-002
2.500000652494930e-002	0.000000e+000	-1.262985e-002
2.500001104700021e-002	0.000000e+000	-9.931381e-003
2.500001556905112e-002	0.000000e+000	-7.233502e-003
2.500002009110202e-002	0.000000e+000	-4.536211e-003
2.500002461315293e-002	0.000000e+000	-1.839506e-003
2.500002913520383e-002	0.000000e+000	8.566122e-004
2.500003365725474e-002	0.000000e+000	3.552144e-003
2.500006531547561e-002	0.000000e+000	2.241023e-002
2.500012052265339e-002	0.000000e+000	5.525446e-002
2.500017647338260e-002	0.000000e+000	8.848657e-002
2.500026649139003e-002	0.000000e+000	1.418479e-001
2.500035787446087e-002	0.000000e+000	1.958785e-001
2.500045895469775e-002	0.000000e+000	2.554383e-001
2.500056732554067e-002	0.000000e+000	3.189881e-001
2.500078406722651e-002	0.000000e+000	4.450733e-001
2.500121755059818e-002	0.000000e+000	6.934615e-001
2.500208451734154e-002	0.000000e+000	1.176054e+000
2.500341205920877e-002	0.000000e+000	1.870596e+000
2.500514921826578e-002	0.000000e+000	2.675853e+000
2.500688128870189e-002	0.000000e+000	3.330560e+000
2.500874024758038e-002	0.000000e+000	3.858500e+000
2.501064067442990e-002	0.000000e+000	4.239232e+000
2.501273035050353e-002	0.000000e+000	4.516215e+000
2.501516183275170e-002	0.000000e+000	4.717590e+000
2.501772114461013e-002	0.000000e+000	4.841604e+000
2.502060665370924e-002	0.000000e+000	4.917443e+000
2.502381641633691e-002	0.000000e+000	4.959931e+000
2.502775411125345e-002	0.000000e+000	4.983304e+000
2.503256281752994e-002	0.000000e+000	4.994261e+000
2.503903395792267e-002	0.000000e+000	4.998612e+000
2.504802886858690e-002	0.000000e+000	4.999853e+000
2.505802886858690e-002	0.000000e+000	5.000001e+000
2.506802886858690e-002	0.000000e+000	5.000000e+000
2.999999899999913e-002	0.000000e+000	5.000000e+000
3.000000000000000e-002	0.000000e+000	5.000000e+000
3.000000000961249e-002	4.806247e-002	5.000143e+000
3.000000002883748e-002	1.441874e-001	5.000430e+000
3.000000029798735e-002	1.489937e+000	5.004436e+000
3.000000060558719e-002	3.027936e+000	5.008975e+000
3.000000100000000e-002	5.000000e+000	5.014741e+000
3.000000100086758e-002	5.000000e+000	5.014740e+000
3.000000100260273e-002	5.000000e+000	5.014740e+000
3.000005785656061e-002	5.000000e+000	4.987380e+000
3.000011471398881e-002	5.000000e+000	4.960024e+000
3.000017167425036e-002	5.000000e+000	4.932619e+000
3.000028559477348e-002	5.000000e+000	4.877800e+000
3.000045281027807e-002	5.000000e+000	4.797337e+000
3.000057854308944e-002	5.000000e+000	4.736869e+000
3.000074678685824e-002	5.000000e+000	4.656051e+000
3.000108327439584e-002	5.000000e+000	4.494749e+000
3.000175624947105e-002	5.000000e+000	4.173459e+000
3.000310219962148e-002	5.000000e+000	3.536556e+000
3.000468318104779e-002	5.000000e+000	2.809932e+000
3.000633005536107e-002	5.000000e+000	2.113894e+000
3.000807373227175e-002	5.000000e+000	1.495278e+000
3.001007470686703e-002	5.000000e+000	9.730074e-001
3.001297174851171e-002	5.000000e+000	4.650504e-001
3.001447296766789e-002	5.000000e+000	2.973004e-001
3.001571207143969e-002	5.000000e+000	2.122528e-001
3.001715677668952e-002	5.000000e+000	1.440846e-001
3.001868464040096e-002	5.000000e+000	9.455634e-002
3.002015797915611e-002	5.000000e+000	6.254706e-002
3.002157385976936e-002	5.000000e+000	4.201910e-002
3.002296875253930e-002	5.000000e+000	2.841531e-002
3.002436110345688e-002	5.000000e+000	1.922710e-002
3.002574835481502e-002	5.000000e+000	1.302351e-002
3.002713665360142e-002	5.000000e+000	8.816280e-003
3.002851767793651e-002	5.000000e+000	5.978956e-003
3.002989973949119e-002	5.000000e+000	4.053677e-003
3.003127822722308e-002	5.000000e+000	2.750833e-003
3.003265833653321e-002	5.000000e+000	1.865883e-003
3.003403611328939e-002	5.000000e+000	1.266356e-003
3.003541508952666e-002	5.000000e+000	8.591875e-004
3.003679250118495e-002	5.000000e+000	5.831668e-004
3.003817087358707e-002	5.000000e+000	3.957205e-004
3.003954820625292e-002	5.000000e+000	2.692697e-004
3.004104016880002e-002	5.000000e+000	1.781412e-004
3.004267852595662e-002	5.000000e+000	1.138255e-004
3.004470737840808e-002	5.000000e+000	6.572618e-005
3.004708654797953e-002	5.000000e+000	3.463466e-005
3.005021026360710e-002	5.000000e+000	1.518898e-005
3.005428399990015e-002	5.000000e+000	5.260408e-006
3.006034630969432e-002	5.000000e+000	1.152432e-006
3.007019241454721e-002	5.000000e+000	5.282695e-008
3.364019241454790e-002	5.000000e+000	3.568793e-009
3.500000000085039e-002	5.000000e+000	3.555346e-009
3.500000100000000e-002	5.000000e+000	3.515049e-009
3.500000100219813e-002	4.989009e+000	-3.405251e-005
3.500000100659440e-002	4.967028e+000	-1.021679e-004
3.500000113848215e-002	4.307589e+000	-2.145687e-003
3.500000127916241e-002	3.604188e+000	-4.323280e-003
3.500000156052294e-002	2.197385e+000	-8.646538e-003
3.500000200000000e-002	0.000000e+000	-1.533059e-002
3.500000200096719e-002	0.000000e+000	-1.533001e-002
3.500000200290155e-002	0.000000e+000	-1.532885e-002
3.500000652986721e-002	0.000000e+000	-1.262687e-002
3.500001105683288e-002	0.000000e+000	-9.925472e-003
3.500001558379854e-002	0.000000e+000	-7.224663e-003
3.500002011076420e-002	0.000000e+000	-4.524442e-003
3.500002463772987e-002	0.000000e+000	-1.824809e-003
3.500002916469553e-002	0.000000e+000	8.742361e-004
3.500003369166119e-002	0.000000e+000	3.572693e-003
3.500006538428957e-002	0.000000e+000	2.245128e-002
3.500012040297387e-002	0.000000e+000	5.518338e-002
3.500017641354591e-002	0.000000e+000	8.845107e-002
3.500026642147520e-002	0.000000e+000	1.418065e-001
3.500035780794571e-002	0.000000e+000	1.958393e-001
3.500045876307074e-002	0.000000e+000	2.553257e-001
3.500056710576533e-002	0.000000e+000	3.188595e-001
3.500078379115451e-002	0.000000e+000	4.449131e-001
3.500121716193287e-002	0.000000e+000	6.932403e-001
3.500208390348960e-002	0.000000e+000	1.175719e+000
3.500341126244555e-002	0.000000e+000	1.870203e+000
3.500514795710687e-002	0.000000e+000	2.675331e+000
3.500687991207196e-002	0.000000e+000	3.330104e+000
3.500873896766567e-002	0.000000e+000	3.858192e+000
3.501063927892213e-002	0.000000e+000	4.238985e+000
