time	V(out)	V(vin)
0.000000000000000e+000	5.000000e+000	0.000000e+000
9.999999960041972e-012	5.000062e+000	5.000000e-002
1.999999992008394e-011	5.000123e+000	1.000000e-001
9.344877336220666e-011	5.000574e+000	4.672439e-001
1.668975468043294e-010	5.001026e+000	8.344878e-001
2.403463202464521e-010	5.001477e+000	1.201732e+000
3.137950936885748e-010	5.001928e+000	1.568975e+000
3.872438671306975e-010	5.002380e+000	1.936219e+000
4.606926405728202e-010	5.002831e+000	2.303463e+000
5.341414140149427e-010	5.003283e+000	2.670707e+000
1.000000000000000e-009	5.006145e+000	5.000000e+000
1.000506859713870e-009	5.006145e+000	5.000000e+000
1.001520579141609e-009	5.006145e+000	5.000000e+000
2.187572309596638e-009	5.006145e+000	5.000000e+000
3.373624040051667e-009	5.006145e+000	5.000000e+000
4.559675770506697e-009	5.006145e+000	5.000000e+000
5.745727500961726e-009	5.006145e+000	5.000000e+000
6.931779231416754e-009	5.006145e+000	5.000000e+000
8.117830961871784e-009	5.006145e+000	5.000000e+000
9.303882692326810e-009	5.006145e+000	5.000000e+000
1.760827224436749e-008	5.006145e+000	5.000000e+000
2.996633686994963e-008	5.006085e+000	5.000000e+000
4.736821690830252e-008	5.005601e+000	5.000000e+000
6.718050666269602e-008	5.004273e+000	5.000000e+000
7.930037860249755e-008	5.003021e+000	5.000000e+000
8.988187574472163e-008	5.001740e+000	5.000000e+000
1.032345922677712e-007	5.000078e+000	5.000000e+000
1.276891108668538e-007	4.997010e+000	5.000000e+000
1.650924470082733e-007	4.992309e+000	5.000000e+000
2.365753515099116e-007	4.983320e+000	5.000000e+000
3.795411605131882e-007	4.965338e+000	5.000000e+000
6.654727785197414e-007	4.929343e+000	5.000000e+000
1.237336014532848e-006	4.857254e+000	5.000000e+000
1.801022717472832e-006	4.786116e+000	5.000000e+000
3.090881955496428e-006	4.623278e+000	5.000000e+000
5.090881955496427e-006	4.370879e+000	5.000000e+000
7.090881955496427e-006	4.118639e+000	5.000000e+000
1.009088195549643e-005	3.740664e+000	5.000000e+000
1.309088195549643e-005	3.363219e+000	5.000000e+000
1.423373909835357e-005	3.219578e+000	5.000000e+000
1.537659624121072e-005	3.076027e+000	5.000000e+000
1.651945338406786e-005	2.932568e+000	5.000000e+000
1.766231052692500e-005	2.789200e+000	5.000000e+000
1.880516766978215e-005	2.645923e+000	5.000000e+000
1.994802481263929e-005	2.502737e+000	5.000000e+000
2.109088195549643e-005	2.359642e+000	5.000000e+000
2.209088195549644e-005	2.234523e+000	5.000000e+000
2.309088195549644e-005	2.109567e+000	5.000000e+000
2.409088195549644e-005	1.985035e+000	5.000000e+000
2.609088195549644e-005	1.739177e+000	5.000000e+000
2.709088195549644e-005	1.618992e+000	5.000000e+000
2.809088195549644e-005	1.501428e+000	5.000000e+000
2.909088195549644e-005	1.387075e+000	5.000000e+000
3.009088195549644e-005	1.276500e+000	5.000000e+000
3.109088195549644e-005	1.170230e+000	5.000000e+000
3.209088195549643e-005	1.068734e+000	5.000000e+000
3.309088195549643e-005	9.724078e-001	5.000000e+000
3.409088195549643e-005	8.815643e-001	5.000000e+000
3.509088195549643e-005	7.964242e-001	5.000000e+000
3.609088195549642e-005	7.171138e-001	5.000000e+000
3.709088195549642e-005	6.436676e-001	5.000000e+000
3.809088195549642e-005	5.760334e-001	5.000000e+000
3.909088195549641e-005	5.140822e-001	5.000000e+000
4.009088195549641e-005	4.576197e-001	5.000000e+000
4.109088195549641e-005	4.063988e-001	5.000000e+000
4.209088195549641e-005	3.601326e-001	5.000000e+000
4.309088195549640e-005	3.185069e-001	5.000000e+000
4.409088195549640e-005	2.811912e-001	5.000000e+000
4.509088195549640e-005	2.478489e-001	5.000000e+000
4.609088195549640e-005	2.181450e-001	5.000000e+000
4.709088195549639e-005	1.917531e-001	5.000000e+000
4.809088195549639e-005	1.683600e-001	5.000000e+000
4.909088195549639e-005	1.476691e-001	5.000000e+000
5.009088195549638e-005	1.294032e-001	5.000000e+000
5.109088195549638e-005	1.133053e-001	5.000000e+000
5.209088195549638e-005	9.913934e-002	5.000000e+000
5.309088195549638e-005	8.668996e-002	5.000000e+000
5.409088195549637e-005	7.576197e-002	5.000000e+000
5.509088195549637e-005	6.617931e-002	5.000000e+000
5.609088195549637e-005	5.778401e-002	5.000000e+000
5.709088195549636e-005	5.043478e-002	5.000000e+000
5.809088195549636e-005	4.400580e-002	5.000000e+000
5.909088195549636e-005	3.838527e-002	5.000000e+000
6.009088195549636e-005	3.347418e-002	5.000000e+000
6.109088195549636e-005	2.918499e-002	5.000000e+000
6.209088195549636e-005	2.544049e-002	5.000000e+000
6.309088195549635e-005	2.217269e-002	5.000000e+000
6.409088195549635e-005	1.932180e-002	5.000000e+000
6.509088195549635e-005	1.683531e-002	5.000000e+000
6.609088195549635e-005	1.466716e-002	5.000000e+000
6.709088195549634e-005	1.277699e-002	5.000000e+000
6.809088195549634e-005	1.112946e-002	5.000000e+000
6.909088195549634e-005	9.693651e-003	5.000000e+000
7.009088195549633e-005	8.442530e-003	5.000000e+000
7.109088195549633e-005	7.352474e-003	5.000000e+000
7.209088195549633e-005	6.402845e-003	5.000000e+000
7.309088195549633e-005	5.575629e-003	5.000000e+000
7.409088195549632e-005	4.855106e-003	5.000000e+000
7.509088195549632e-005	4.227556e-003	5.000000e+000
7.609088195549632e-005	3.681016e-003	5.000000e+000
7.709088195549632e-005	3.205055e-003	5.000000e+000
7.809088195549631e-005	2.790577e-003	5.000000e+000
7.909088195549631e-005	2.429653e-003	5.000000e+000
8.009088195549631e-005	2.115377e-003	5.000000e+000
8.109088195549630e-005	1.841726e-003	5.000000e+000
8.209088195549630e-005	1.603455e-003	5.000000e+000
8.309088195549630e-005	1.395996e-003	5.000000e+000
8.409088195549630e-005	1.215368e-003	5.000000e+000
8.509088195549629e-005	1.058102e-003	5.000000e+000
8.609088195549629e-005	9.211801e-004	5.000000e+000
8.709088195549629e-005	8.019716e-004	5.000000e+000
8.809088195549628e-005	6.981862e-004	5.000000e+000
8.909088195549628e-005	6.078293e-004	5.000000e+000
9.009088195549628e-005	5.291642e-004	5.000000e+000
9.109088195549628e-005	4.606784e-004	5.000000e+000
9.209088195549627e-005	4.010553e-004	5.000000e+000
9.309088195549627e-005	3.491482e-004	5.000000e+000
9.409088195549627e-005	3.039588e-004	5.000000e+000
9.509088195549626e-005	2.646178e-004	5.000000e+000
9.609088195549626e-005	2.303685e-004	5.000000e+000
9.709088195549626e-005	2.005520e-004	5.000000e+000
9.809088195549626e-005	1.745946e-004	5.000000e+000
9.836361310471108e-005	1.678885e-004	5.000000e+000
9.863634425392590e-005	1.614554e-004	5.000000e+000
9.890907540314072e-005	1.552954e-004	5.000000e+000
9.918180655235554e-005	1.494084e-004	5.000000e+000
9.945453770157036e-005	1.437946e-004	5.000000e+000
9.972726885078518e-005	1.384539e-004	5.000000e+000
1.000000000000000e-004	1.333863e-004	5.000000e+000
1.000010000000000e-004	1.333678e-004	5.000000e+000
1.000010022000245e-004	1.297113e-004	4.989000e+000
1.000010066000735e-004	1.223894e-004	4.967000e+000
1.000010455719359e-004	5.784362e-005	4.772140e+000
1.000010845437984e-004	-5.820676e-006	4.577281e+000
1.000011235156608e-004	-6.860353e-005	4.382421e+000
1.000011624875233e-004	-1.305050e-004	4.187562e+000
1.000012014593857e-004	-1.915249e-004	3.992703e+000
1.000012404312481e-004	-2.516635e-004	3.797844e+000
1.000012794031106e-004	-3.109206e-004	3.602984e+000
1.000014441874014e-004	-5.436976e-004	2.779063e+000
1.000015077329032e-004	-6.062559e-004	2.461335e+000
1.000015934767700e-004	-6.488164e-004	2.032616e+000
1.000016528710706e-004	-6.659828e-004	1.735645e+000
1.000017211563875e-004	-6.795353e-004	1.394218e+000
1.000018289824932e-004	-6.941201e-004	8.550875e-001
1.000018527955342e-004	-6.956888e-004	7.360224e-001
1.000019004216161e-004	-6.962966e-004	4.978919e-001
1.000019047478362e-004	-6.962318e-004	4.762608e-001
1.000019307051572e-004	-6.947856e-004	3.464742e-001
1.000019653149186e-004	-6.914476e-004	1.734254e-001
1.000020000000000e-004	-6.870757e-004	0.000000e+000
1.000020034685082e-004	-6.829317e-004	0.000000e+000
1.000020104055244e-004	-6.757498e-004	0.000000e+000
1.000020242795570e-004	-6.646375e-004	0.000000e+000
1.000020520276222e-004	-6.477734e-004	0.000000e+000
1.000020805222690e-004	-6.340914e-004	0.000000e+000
1.000021325958184e-004	-6.132878e-004	0.000000e+000
1.000021994155483e-004	-5.895464e-004	0.000000e+000
1.000023226861977e-004	-5.492059e-004	0.000000e+000
1.000024774674140e-004	-5.007377e-004	0.000000e+000
1.000027449232849e-004	-4.185047e-004	0.000000e+000
1.000030924108085e-004	-3.110122e-004	0.000000e+000
1.000036777722758e-004	-1.256379e-004	0.000000e+000
1.000044514243930e-004	1.294893e-004	0.000000e+000
1.000057161693926e-004	5.700435e-004	0.000000e+000
1.000074360153621e-004	1.211443e-003	0.000000e+000
1.000101521893162e-004	2.304177e-003	0.000000e+000
1.000134711972961e-004	3.742902e-003	0.000000e+000
1.000174296040751e-004	5.575702e-003	0.000000e+000
1.000212220731678e-004	7.424045e-003	0.000000e+000
1.000246642966174e-004	9.168757e-003	0.000000e+000
1.000284809918624e-004	1.116119e-002	0.000000e+000
1.000326454888045e-004	1.338997e-002	0.000000e+000
1.000388368221657e-004	1.677823e-002	0.000000e+000
1.000461743873566e-004	2.087377e-002	0.000000e+000
1.000558707076383e-004	2.637572e-002	0.000000e+000
1.000654163160691e-004	3.185870e-002	0.000000e+000
1.000760397476236e-004	3.801338e-002	0.000000e+000
1.000865370838634e-004	4.412760e-002	0.000000e+000
1.000981355640396e-004	5.090626e-002	0.000000e+000
1.001087341146368e-004	5.711416e-002	0.000000e+000
1.001196951956818e-004	6.354392e-002	0.000000e+000
1.001331984868967e-004	7.147207e-002	0.000000e+000
1.001503609594481e-004	8.155347e-002	0.000000e+000
1.001734875286051e-004	9.513916e-002	0.000000e+000
1.002058375999138e-004	1.141360e-001	0.000000e+000
1.002540662152660e-004	1.424282e-001	0.000000e+000
1.003483513174874e-004	1.976409e-001	0.000000e+000
1.004421377263504e-004	2.524127e-001	0.000000e+000
1.007357607206514e-004	4.223444e-001	0.000000e+000
1.011272580463860e-004	6.454076e-001	0.000000e+000
1.019102526978552e-004	1.083114e+000	0.000000e+000
1.026772955390525e-004	1.501033e+000	0.000000e+000
1.034033091505848e-004	1.882803e+000	0.000000e+000
1.040106550759245e-004	2.186470e+000	0.000000e+000
1.047190142282507e-004	2.515011e+000	0.000000e+000
1.057190142282507e-004	2.934038e+000	0.000000e+000
1.067190142282507e-004	3.301028e+000	0.000000e+000
1.077190142282507e-004	3.613133e+000	0.000000e+000
1.087190142282507e-004	3.874359e+000	0.000000e+000
1.097190142282507e-004	4.090371e+000	0.000000e+000
1.107190142282507e-004	4.267378e+000	0.000000e+000
1.117190142282507e-004	4.411437e+000	0.000000e+000
1.127190142282507e-004	4.528083e+000	0.000000e+000
1.137190142282506e-004	4.622171e+000	0.000000e+000
1.147190142282506e-004	4.697844e+000	0.000000e+000
1.157190142282506e-004	4.758571e+000	0.000000e+000
1.167190142282506e-004	4.807223e+000	0.000000e+000
1.177190142282506e-004	4.846149e+000	0.000000e+000
1.187190142282506e-004	4.877258e+000	0.000000e+000
1.197190142282506e-004	4.902097e+000	0.000000e+000
1.207190142282506e-004	4.921920e+000	0.000000e+000
1.217190142282506e-004	4.937737e+000	0.000000e+000
1.227190142282506e-004	4.950355e+000	0.000000e+000
1.237190142282506e-004	4.960419e+000	0.000000e+000
1.247190142282506e-004	4.968446e+000	0.000000e+000
1.257190142282506e-004	4.974846e+000	0.000000e+000
1.267190142282506e-004	4.979949e+000	0.000000e+000
1.277190142282506e-004	4.984017e+000	0.000000e+000
1.287190142282506e-004	4.987261e+000	0.000000e+000
1.297190142282506e-004	4.989846e+000	0.000000e+000
1.307190142282506e-004	4.991907e+000	0.000000e+000
1.317190142282506e-004	4.993549e+000	0.000000e+000
1.327190142282506e-004	4.994859e+000	0.000000e+000
1.337190142282506e-004	4.995903e+000	0.000000e+000
1.347190142282506e-004	4.996735e+000	0.000000e+000
1.357190142282506e-004	4.997397e+000	0.000000e+000
1.367190142282506e-004	4.997926e+000	0.000000e+000
1.377190142282506e-004	4.998347e+000	0.000000e+000
1.387190142282506e-004	4.998682e+000	0.000000e+000
1.397190142282506e-004	4.998950e+000	0.000000e+000
1.407190142282506e-004	4.999163e+000	0.000000e+000
1.417190142282506e-004	4.999333e+000	0.000000e+000
1.427190142282506e-004	4.999468e+000	0.000000e+000
1.437190142282506e-004	4.999577e+000	0.000000e+000
1.447190142282506e-004	4.999662e+000	0.000000e+000
1.457190142282506e-004	4.999731e+000	0.000000e+000
1.467190142282506e-004	4.999785e+000	0.000000e+000
1.477190142282506e-004	4.999829e+000	0.000000e+000
1.487190142282506e-004	4.999864e+000	0.000000e+000
1.497190142282506e-004	4.999891e+000	0.000000e+000
1.507190142282506e-004	4.999913e+000	0.000000e+000
1.517190142282506e-004	4.999931e+000	0.000000e+000
1.527190142282506e-004	4.999945e+000	0.000000e+000
1.537190142282506e-004	4.999956e+000	0.000000e+000
1.547190142282505e-004	4.999965e+000	0.000000e+000
1.557190142282505e-004	4.999972e+000	0.000000e+000
1.567190142282505e-004	4.999978e+000	0.000000e+000
1.587190142282505e-004	4.999986e+000	0.000000e+000
1.607190142282505e-004	4.999991e+000	0.000000e+000
1.637190142282505e-004	4.999996e+000	0.000000e+000
1.660047285139648e-004	4.999997e+000	0.000000e+000
1.682904427996791e-004	4.999998e+000	0.000000e+000
1.705761570853934e-004	4.999999e+000	0.000000e+000
1.728618713711076e-004	4.999999e+000	0.000000e+000
1.751475856568219e-004	5.000000e+000	0.000000e+000
1.774332999425362e-004	5.000000e+000	0.000000e+000
1.797190142282505e-004	5.000000e+000	0.000000e+000
1.999990000000000e-004	5.000000e+000	0.000000e+000
2.000000000000000e-004	5.000000e+000	0.000000e+000
2.000000025854386e-004	5.000016e+000	1.292719e-002
2.000000077563159e-004	5.000048e+000	3.878158e-002
2.000001495054136e-004	5.000919e+000	7.475271e-001
2.000002912545114e-004	5.001790e+000	1.456273e+000
2.000004330036091e-004	5.002661e+000	2.165018e+000
2.000005747527068e-004	5.003532e+000	2.873764e+000
2.000007165018045e-004	5.004403e+000	3.582509e+000
2.000008582509023e-004	5.005274e+000	4.291255e+000
2.000010000000000e-004	5.006145e+000	5.000000e+000
2.000010007495659e-004	5.006145e+000	5.000000e+000
2.000010022486977e-004	5.006145e+000	5.000000e+000
2.000027562328911e-004	5.006145e+000	5.000000e+000
2.000045102170845e-004	5.006145e+000	5.000000e+000
2.000062642012778e-004	5.006145e+000	5.000000e+000
2.000080181854712e-004	5.006145e+000	5.000000e+000
2.000097721696646e-004	5.006145e+000	5.000000e+000
2.000115261538580e-004	5.006145e+000	5.000000e+000
2.000132801380514e-004	5.006145e+000	5.000000e+000
2.000225864675008e-004	5.006145e+000	5.000000e+000
2.000344953451172e-004	5.006083e+000	5.000000e+000
2.000518720600858e-004	5.005584e+000	5.000000e+000
2.000713291051848e-004	5.004268e+000	5.000000e+000
2.000829109908548e-004	5.003070e+000	5.000000e+000
2.000934356368566e-004	5.001796e+000	5.000000e+000
2.001067602953495e-004	5.000139e+000	5.000000e+000
2.001310845916798e-004	4.997088e+000	5.000000e+000
2.001672857936991e-004	4.992538e+000	5.000000e+000
2.002366128178831e-004	4.983821e+000	5.000000e+000
2.003752668662511e-004	4.966382e+000	5.000000e+000
2.006525749629872e-004	4.931475e+000	5.000000e+000
2.012071911564594e-004	4.861565e+000	5.000000e+000
2.017788918703178e-004	4.789417e+000	5.000000e+000
2.030183883875860e-004	4.632936e+000	5.000000e+000
2.050183883875860e-004	4.380532e+000	5.000000e+000
2.070183883875860e-004	4.128286e+000	5.000000e+000
2.100183883875860e-004	3.750298e+000	5.000000e+000
2.130183883875859e-004	3.372839e+000	5.000000e+000
2.141612455304431e-004	3.229191e+000	5.000000e+000
2.153041026733002e-004	3.085635e+000	5.000000e+000
2.164469598161574e-004	2.942170e+000	5.000000e+000
2.175898169590145e-004	2.798795e+000	5.000000e+000
2.187326741018717e-004	2.655512e+000	5.000000e+000
2.198755312447288e-004	2.512320e+000	5.000000e+000
2.210183883875859e-004	2.369219e+000	5.000000e+000
2.220183883875859e-004	2.244092e+000	5.000000e+000
2.230183883875859e-004	2.119116e+000	5.000000e+000
2.240183883875859e-004	1.994538e+000	5.000000e+000
2.260183883875859e-004	1.748463e+000	5.000000e+000
2.270183883875859e-004	1.628103e+000	5.000000e+000
2.280183883875859e-004	1.510317e+000	5.000000e+000
2.290183883875859e-004	1.395697e+000	5.000000e+000
2.300183883875859e-004	1.284814e+000	5.000000e+000
2.310183883875859e-004	1.178197e+000	5.000000e+000
2.320183883875859e-004	1.076320e+000	5.000000e+000
2.330183883875859e-004	9.795863e-001	5.000000e+000
2.340183883875859e-004	8.883144e-001	5.000000e+000
2.350183883875859e-004	8.027323e-001	5.000000e+000
2.360183883875859e-004	7.229736e-001	5.000000e+000
2.370183883875859e-004	6.490796e-001	5.000000e+000
2.380183883875859e-004	5.810044e-001	5.000000e+000
2.390183883875859e-004	5.186247e-001	5.000000e+000
2.400183883875859e-004	4.617509e-001	5.000000e+000
2.410183883875859e-004	4.101392e-001	5.000000e+000
2.420183883875859e-004	3.635052e-001	5.000000e+000
2.430183883875859e-004	3.215363e-001	5.000000e+000
2.440183883875859e-004	2.839030e-001	5.000000e+000
2.450183883875859e-004	2.502688e-001	5.000000e+000
2.460183883875859e-004	2.202983e-001	5.000000e+000
2.470183883875859e-004	1.936644e-001	5.000000e+000
2.480183883875860e-004	1.700525e-001	5.000000e+000
2.490183883875860e-004	1.491649e-001	5.000000e+000
2.500183883875860e-004	1.307226e-001	5.000000e+000
2.510183883875860e-004	1.144672e-001	5.000000e+000
2.520183883875861e-004	1.001611e-001	5.000000e+000
2.530183883875861e-004	8.758743e-002	5.000000e+000
2.540183883875861e-004	7.654935e-002	5.000000e+000
2.550183883875861e-004	6.686946e-002	5.000000e+000
2.560183883875861e-004	5.838840e-002	5.000000e+000
2.570183883875862e-004	5.096368e-002	5.000000e+000
2.580183883875862e-004	4.446833e-002	5.000000e+000
2.590183883875862e-004	3.878953e-002	5.000000e+000
2.600183883875862e-004	3.382733e-002	5.000000e+000
2.610183883875863e-004	2.949335e-002	5.000000e+000
2.620183883875863e-004	2.570965e-002	5.000000e+000
2.630183883875863e-004	2.240755e-002	5.000000e+000
2.640183883875863e-004	1.952667e-002	5.000000e+000
2.650183883875864e-004	1.701397e-002	5.000000e+000
2.660183883875864e-004	1.482293e-002	5.000000e+000
2.670183883875864e-004	1.291277e-002	5.000000e+000
2.680183883875864e-004	1.124780e-002	5.000000e+000
2.690183883875865e-004	9.796781e-003	5.000000e+000
2.700183883875865e-004	8.532391e-003	5.000000e+000
2.710183883875865e-004	7.430761e-003	5.000000e+000
2.720183883875865e-004	6.471043e-003	5.000000e+000
2.730183883875866e-004	5.635035e-003	5.000000e+000
2.740183883875866e-004	4.906847e-003	5.000000e+000
2.750183883875866e-004	4.272619e-003	5.000000e+000
2.760183883875866e-004	3.720262e-003	5.000000e+000
2.770183883875867e-004	3.239232e-003	5.000000e+000
2.780183883875867e-004	2.820338e-003	5.000000e+000
2.790183883875867e-004	2.455569e-003	5.000000e+000
2.800183883875867e-004	2.137942e-003	5.000000e+000
2.810183883875868e-004	1.861374e-003	5.000000e+000
2.820183883875868e-004	1.620563e-003	5.000000e+000
2.830183883875868e-004	1.410892e-003	5.000000e+000
2.840183883875868e-004	1.228336e-003	5.000000e+000
2.850183883875869e-004	1.069393e-003	5.000000e+000
2.860183883875869e-004	9.310108e-004	5.000000e+000
2.870183883875869e-004	8.105304e-004	5.000000e+000
2.880183883875869e-004	7.056376e-004	5.000000e+000
2.890183883875870e-004	6.143166e-004	5.000000e+000
2.900183883875870e-004	5.348120e-004	5.000000e+000
2.910183883875870e-004	4.655955e-004	5.000000e+000
2.920183883875870e-004	4.053360e-004	5.000000e+000
2.930183883875870e-004	3.528749e-004	5.000000e+000
2.940183883875871e-004	3.072032e-004	5.000000e+000
2.950183883875871e-004	2.674423e-004	5.000000e+000
2.960183883875871e-004	2.328274e-004	5.000000e+000
2.970183883875871e-004	2.026927e-004	5.000000e+000
2.980183883875872e-004	1.764582e-004	5.000000e+000
2.983014757607896e-004	1.694400e-004	5.000000e+000
2.985845631339919e-004	1.627138e-004	5.000000e+000
2.988676505071943e-004	1.562797e-004	5.000000e+000
