time	V(out)	V(vin)
0.000000000000000e+000	5.000000e+000	0.000000e+000
9.999999960041972e-012	5.000148e+000	5.000000e-002
1.999999992008394e-011	5.000296e+000	1.000000e-001
1.000000000000000e-009	5.014777e+000	5.000000e+000
1.000791982839644e-009	5.014777e+000	5.000000e+000
1.002375948518932e-009	5.014777e+000	5.000000e+000
1.810198444955815e-009	5.014777e+000	5.000000e+000
2.621188872751274e-009	5.014777e+000	5.000000e+000
4.243169728342191e-009	5.014775e+000	5.000000e+000
7.487131439524026e-009	5.014750e+000	5.000000e+000
1.397505486188770e-008	5.014560e+000	5.000000e+000
2.695090170661504e-008	5.013776e+000	5.000000e+000
3.652147194252392e-008	5.012908e+000	5.000000e+000
4.663780289152942e-008	5.011773e+000	5.000000e+000
5.959765210143272e-008	5.010208e+000	5.000000e+000
7.556216134409579e-008	5.008223e+000	5.000000e+000
9.893916449540458e-008	5.005290e+000	5.000000e+000
1.348416906837955e-007	5.000776e+000	5.000000e+000
2.066467430605773e-007	4.991747e+000	5.000000e+000
3.502568478141409e-007	4.973688e+000	5.000000e+000
5.048723567039692e-007	4.954238e+000	5.000000e+000
8.141033744836260e-007	4.915295e+000	5.000000e+000
1.432565410042940e-006	4.837299e+000	5.000000e+000
2.015322659882526e-006	4.763743e+000	5.000000e+000
2.676237207741604e-006	4.680304e+000	5.000000e+000
3.572801023471480e-006	4.567131e+000	5.000000e+000
4.572801023471480e-006	4.440928e+000	5.000000e+000
6.572801023471480e-006	4.188639e+000	5.000000e+000
8.572801023471479e-006	3.936542e+000	5.000000e+000
1.057280102347148e-005	3.684664e+000	5.000000e+000
1.357280102347148e-005	3.307302e+000	5.000000e+000
1.657280102347148e-005	2.930530e+000	5.000000e+000
1.757280102347149e-005	2.805038e+000	5.000000e+000
1.857280102347149e-005	2.679643e+000	5.000000e+000
1.957280102347149e-005	2.554343e+000	5.000000e+000
2.057280102347149e-005	2.429138e+000	5.000000e+000
2.157280102347149e-005	2.304029e+000	5.000000e+000
2.257280102347149e-005	2.179016e+000	5.000000e+000
2.357280102347149e-005	2.054098e+000	5.000000e+000
2.557280102347149e-005	1.806816e+000	5.000000e+000
2.657280102347149e-005	1.685434e+000	5.000000e+000
2.757280102347149e-005	1.566342e+000	5.000000e+000
2.857280102347149e-005	1.450134e+000	5.000000e+000
2.957280102347149e-005	1.337394e+000	5.000000e+000
3.057280102347149e-005	1.228671e+000	5.000000e+000
3.157280102347149e-005	1.124471e+000	5.000000e+000
3.257280102347148e-005	1.025230e+000	5.000000e+000
3.357280102347148e-005	9.313092e-001	5.000000e+000
3.457280102347148e-005	8.429808e-001	5.000000e+000
3.557280102347148e-005	7.604236e-001	5.000000e+000
3.657280102347147e-005	6.837226e-001	5.000000e+000
3.757280102347147e-005	6.128728e-001	5.000000e+000
3.857280102347147e-005	5.477865e-001	5.000000e+000
3.957280102347146e-005	4.883041e-001	5.000000e+000
4.057280102347146e-005	4.342062e-001	5.000000e+000
4.157280102347146e-005	3.852264e-001	5.000000e+000
4.257280102347146e-005	3.410643e-001	5.000000e+000
4.357280102347145e-005	3.013970e-001	5.000000e+000
4.457280102347145e-005	2.658903e-001	5.000000e+000
4.557280102347145e-005	2.342073e-001	5.000000e+000
4.657280102347144e-005	2.060162e-001	5.000000e+000
4.757280102347144e-005	1.809959e-001	5.000000e+000
4.857280102347144e-005	1.588402e-001	5.000000e+000
4.957280102347144e-005	1.392609e-001	5.000000e+000
5.057280102347143e-005	1.219898e-001	5.000000e+000
5.157280102347143e-005	1.067791e-001	5.000000e+000
5.257280102347143e-005	9.340207e-002	5.000000e+000
5.357280102347142e-005	8.165233e-002	5.000000e+000
5.457280102347142e-005	7.134336e-002	5.000000e+000
5.557280102347142e-005	6.230732e-002	5.000000e+000
5.657280102347142e-005	5.439379e-002	5.000000e+000
5.757280102347141e-005	4.746855e-002	5.000000e+000
5.857280102347141e-005	4.141217e-002	5.000000e+000
5.957280102347141e-005	3.611872e-002	5.000000e+000
6.057280102347141e-005	3.149441e-002	5.000000e+000
6.157280102347140e-005	2.745645e-002	5.000000e+000
6.257280102347140e-005	2.393187e-002	5.000000e+000
6.357280102347140e-005	2.085644e-002	5.000000e+000
6.457280102347139e-005	1.817371e-002	5.000000e+000
6.557280102347139e-005	1.583415e-002	5.000000e+000
6.657280102347139e-005	1.379431e-002	5.000000e+000
6.757280102347139e-005	1.201615e-002	5.000000e+000
6.857280102347138e-005	1.046637e-002	5.000000e+000
6.957280102347138e-005	9.115838e-003	5.000000e+000
7.057280102347138e-005	7.939087e-003	5.000000e+000
7.157280102347137e-005	6.913875e-003	5.000000e+000
7.257280102347137e-005	6.020776e-003	5.000000e+000
7.357280102347137e-005	5.242832e-003	5.000000e+000
7.457280102347137e-005	4.565245e-003	5.000000e+000
7.557280102347136e-005	3.975110e-003	5.000000e+000
7.657280102347136e-005	3.461168e-003	5.000000e+000
7.757280102347136e-005	3.013603e-003	5.000000e+000
7.857280102347135e-005	2.623861e-003	5.000000e+000
7.957280102347135e-005	2.284483e-003	5.000000e+000
8.057280102347135e-005	1.988971e-003	5.000000e+000
8.157280102347135e-005	1.731663e-003	5.000000e+000
8.257280102347134e-005	1.507624e-003	5.000000e+000
8.357280102347134e-005	1.312559e-003	5.000000e+000
8.457280102347134e-005	1.142722e-003	5.000000e+000
8.557280102347134e-005	9.948532e-004	5.000000e+000
8.657280102347133e-005	8.661135e-004	5.000000e+000
8.757280102347133e-005	7.540293e-004	5.000000e+000
8.857280102347133e-005	6.564469e-004	5.000000e+000
8.957280102347132e-005	5.714908e-004	5.000000e+000
9.057280102347132e-005	4.975279e-004	5.000000e+000
9.157280102347132e-005	4.331361e-004	5.000000e+000
9.257280102347132e-005	3.770773e-004	5.000000e+000
9.357280102347131e-005	3.282733e-004	5.000000e+000
9.457280102347131e-005	2.857855e-004	5.000000e+000
9.557280102347131e-005	2.487966e-004	5.000000e+000
9.657280102347130e-005	2.165950e-004	5.000000e+000
9.757280102347130e-005	1.885612e-004	5.000000e+000
9.914460204694258e-005	1.509677e-004	5.000000e+000
1.000000000000000e-004	1.340872e-004	5.000000e+000
1.000010000000000e-004	1.340687e-004	5.000000e+000
1.000010022000025e-004	9.847404e-005	4.989000e+000
1.000010066000076e-004	2.726840e-005	4.967000e+000
1.000010947776066e-004	-1.401173e-003	4.526112e+000
1.000011829552055e-004	-2.826089e-003	4.085224e+000
1.000012711328044e-004	-4.247478e-003	3.644336e+000
1.000013593104034e-004	-5.665343e-003	3.203448e+000
1.000014474880023e-004	-7.079681e-003	2.762560e+000
1.000015356656012e-004	-8.490494e-003	2.321672e+000
1.000016238432002e-004	-9.897781e-003	1.880784e+000
1.000017495283078e-004	-1.186266e-002	1.252358e+000
1.000018163972331e-004	-1.288934e-002	9.180138e-001
1.000018662621493e-004	-1.363669e-002	6.686893e-001
1.000019002701677e-004	-1.413227e-002	4.986492e-001
1.000019365724087e-004	-1.464570e-002	3.171380e-001
1.000019457492995e-004	-1.476900e-002	2.712535e-001
1.000019641030811e-004	-1.500336e-002	1.794846e-001
1.000020000000000e-004	-1.543606e-002	0.000000e+000
1.000020001489216e-004	-1.543597e-002	0.000000e+000
1.000020004467649e-004	-1.543580e-002	0.000000e+000
1.000020022338245e-004	-1.543478e-002	0.000000e+000
1.000020046165706e-004	-1.543341e-002	0.000000e+000
1.000020093820629e-004	-1.543068e-002	0.000000e+000
1.000020189130475e-004	-1.542522e-002	0.000000e+000
1.000020379750165e-004	-1.541431e-002	0.000000e+000
1.000020760989547e-004	-1.539250e-002	0.000000e+000
1.000021523468310e-004	-1.534885e-002	0.000000e+000
1.000023048425836e-004	-1.526141e-002	0.000000e+000
1.000025649191577e-004	-1.511177e-002	0.000000e+000
1.000028965908744e-004	-1.491999e-002	0.000000e+000
1.000034053080313e-004	-1.462401e-002	0.000000e+000
1.000041286085418e-004	-1.420011e-002	0.000000e+000
1.000052693680679e-004	-1.352626e-002	0.000000e+000
1.000068790764947e-004	-1.256860e-002	0.000000e+000
1.000093371620768e-004	-1.109926e-002	0.000000e+000
1.000125395888738e-004	-9.181551e-003	0.000000e+000
1.000163584024811e-004	-6.894413e-003	0.000000e+000
1.000202112278148e-004	-4.587691e-003	0.000000e+000
1.000237449408994e-004	-2.472891e-003	0.000000e+000
1.000269599919601e-004	-5.496684e-004	0.000000e+000
1.000306797877779e-004	1.674311e-003	0.000000e+000
1.000361817725847e-004	4.961689e-003	0.000000e+000
1.000429060305118e-004	8.976032e-003	0.000000e+000
1.000516090397365e-004	1.416647e-002	0.000000e+000
1.000619880741734e-004	2.034952e-002	0.000000e+000
1.000752385382926e-004	2.823390e-002	0.000000e+000
1.000910356255053e-004	3.762340e-002	0.000000e+000
1.001060970806592e-004	4.656665e-002	0.000000e+000
1.001279094147672e-004	5.950605e-002	0.000000e+000
1.001577479366918e-004	7.718908e-002	0.000000e+000
1.002032484396538e-004	1.041245e-001	0.000000e+000
1.002611961454746e-004	1.383813e-001	0.000000e+000
1.003410414933506e-004	1.854827e-001	0.000000e+000
1.005376109548214e-004	3.008369e-001	0.000000e+000
1.007383541585371e-004	4.175129e-001	0.000000e+000
1.011398405659686e-004	6.476160e-001	0.000000e+000
1.019428133808316e-004	1.097365e+000	0.000000e+000
1.029428133808316e-004	1.637577e+000	0.000000e+000
1.039428133808316e-004	2.146289e+000	0.000000e+000
1.049428133808316e-004	2.610550e+000	0.000000e+000
1.059428133808316e-004	3.021595e+000	0.000000e+000
1.069428133808316e-004	3.376509e+000	0.000000e+000
1.079428133808316e-004	3.677011e+000	0.000000e+000
1.089428133808316e-004	3.927653e+000	0.000000e+000
1.099428133808316e-004	4.134353e+000	0.000000e+000
1.109428133808316e-004	4.303372e+000	0.000000e+000
1.119428133808316e-004	4.440707e+000	0.000000e+000
1.129428133808316e-004	4.551768e+000	0.000000e+000
1.139428133808316e-004	4.641264e+000	0.000000e+000
1.149428133808315e-004	4.713189e+000	0.000000e+000
1.159428133808315e-004	4.770877e+000	0.000000e+000
1.169428133808315e-004	4.817074e+000	0.000000e+000
1.179428133808315e-004	4.854025e+000	0.000000e+000
1.189428133808315e-004	4.883549e+000	0.000000e+000
1.199428133808315e-004	4.907118e+000	0.000000e+000
1.209428133808315e-004	4.925926e+000	0.000000e+000
1.219428133808315e-004	4.940933e+000	0.000000e+000
1.229428133808315e-004	4.952904e+000	0.000000e+000
1.239428133808315e-004	4.962452e+000	0.000000e+000
1.249428133808315e-004	4.970067e+000	0.000000e+000
1.259428133808315e-004	4.976139e+000	0.000000e+000
1.269428133808315e-004	4.980980e+000	0.000000e+000
1.279428133808315e-004	4.984839e+000	0.000000e+000
1.289428133808315e-004	4.987916e+000	0.000000e+000
1.299428133808315e-004	4.990368e+000	0.000000e+000
1.309428133808315e-004	4.992323e+000	0.000000e+000
1.319428133808315e-004	4.993881e+000	0.000000e+000
1.329428133808315e-004	4.995123e+000	0.000000e+000
1.339428133808315e-004	4.996113e+000	0.000000e+000
1.349428133808315e-004	4.996902e+000	0.000000e+000
1.359428133808315e-004	4.997531e+000	0.000000e+000
1.369428133808315e-004	4.998033e+000	0.000000e+000
1.379428133808315e-004	4.998432e+000	0.000000e+000
1.389428133808315e-004	4.998750e+000	0.000000e+000
1.399428133808315e-004	4.999004e+000	0.000000e+000
1.409428133808315e-004	4.999207e+000	0.000000e+000
1.419428133808315e-004	4.999367e+000	0.000000e+000
1.429428133808315e-004	4.999496e+000	0.000000e+000
1.439428133808315e-004	4.999598e+000	0.000000e+000
1.449428133808315e-004	4.999680e+000	0.000000e+000
1.459428133808315e-004	4.999745e+000	0.000000e+000
1.469428133808315e-004	4.999797e+000	0.000000e+000
1.479428133808315e-004	4.999838e+000	0.000000e+000
1.489428133808315e-004	4.999871e+000	0.000000e+000
1.499428133808315e-004	4.999897e+000	0.000000e+000
1.509428133808315e-004	4.999918e+000	0.000000e+000
1.519428133808315e-004	4.999935e+000	0.000000e+000
1.529428133808315e-004	4.999948e+000	0.000000e+000
1.539428133808315e-004	4.999959e+000	0.000000e+000
1.549428133808315e-004	4.999967e+000	0.000000e+000
1.559428133808314e-004	4.999973e+000	0.000000e+000
1.569428133808314e-004	4.999979e+000	0.000000e+000
1.589428133808314e-004	4.999987e+000	0.000000e+000
1.609428133808314e-004	4.999991e+000	0.000000e+000
1.639428133808314e-004	4.999996e+000	0.000000e+000
1.663713848094028e-004	4.999997e+000	0.000000e+000
1.687999562379743e-004	4.999998e+000	0.000000e+000
1.712285276665457e-004	4.999999e+000	0.000000e+000
1.736570990951171e-004	5.000000e+000	0.000000e+000
1.760856705236885e-004	5.000000e+000	0.000000e+000
1.785142419522600e-004	5.000000e+000	0.000000e+000
1.809428133808314e-004	5.000000e+000	0.000000e+000
1.999990000000000e-004	5.000000e+000	0.000000e+000
2.000000000000000e-004	5.000000e+000	0.000000e+000
2.000000073957515e-004	5.000109e+000	3.697876e-002
2.000000221872545e-004	5.000328e+000	1.109363e-001
2.000010000000000e-004	5.014777e+000	5.000000e+000
2.000010003596086e-004	5.014777e+000	5.000000e+000
2.000010010788257e-004	5.014777e+000	5.000000e+000
2.000017361187338e-004	5.014777e+000	5.000000e+000
2.000024725970761e-004	5.014777e+000	5.000000e+000
2.000039455537607e-004	5.014776e+000	5.000000e+000
2.000068914671300e-004	5.014758e+000	5.000000e+000
2.000127832938685e-004	5.014610e+000	5.000000e+000
2.000245669473456e-004	5.013961e+000	5.000000e+000
2.000348658663302e-004	5.013073e+000	5.000000e+000
2.000450264616422e-004	5.011961e+000	5.000000e+000
2.000582272079543e-004	5.010377e+000	5.000000e+000
2.000728458907115e-004	5.008564e+000	5.000000e+000
2.000954602459699e-004	5.005728e+000	5.000000e+000
2.001280395817370e-004	5.001633e+000	5.000000e+000
2.001931982532710e-004	4.993440e+000	5.000000e+000
2.003235155963392e-004	4.977053e+000	5.000000e+000
2.004746540593546e-004	4.958041e+000	5.000000e+000
2.007769309853853e-004	4.919979e+000	5.000000e+000
2.013814848374467e-004	4.843747e+000	5.000000e+000
2.019486415329837e-004	4.772163e+000	5.000000e+000
2.026718787278230e-004	4.680855e+000	5.000000e+000
2.034557663145295e-004	4.581903e+000	5.000000e+000
2.044557663145294e-004	4.455698e+000	5.000000e+000
2.064557663145294e-004	4.203399e+000	5.000000e+000
2.084557663145294e-004	3.951289e+000	5.000000e+000
2.104557663145294e-004	3.699398e+000	5.000000e+000
2.134557663145294e-004	3.322014e+000	5.000000e+000
2.164557663145294e-004	2.945218e+000	5.000000e+000
2.174557663145294e-004	2.819725e+000	5.000000e+000
2.184557663145294e-004	2.694323e+000	5.000000e+000
2.194557663145294e-004	2.569012e+000	5.000000e+000
2.204557663145294e-004	2.443793e+000	5.000000e+000
2.214557663145294e-004	2.318666e+000	5.000000e+000
2.224557663145294e-004	2.193630e+000	5.000000e+000
2.234557663145294e-004	2.068685e+000	5.000000e+000
2.254557663145294e-004	1.821147e+000	5.000000e+000
2.264557663145294e-004	1.699536e+000	5.000000e+000
2.274557663145294e-004	1.580145e+000	5.000000e+000
2.284557663145294e-004	1.463569e+000	5.000000e+000
2.294557663145294e-004	1.350393e+000	5.000000e+000
2.304557663145294e-004	1.241174e+000	5.000000e+000
2.314557663145294e-004	1.136420e+000	5.000000e+000
2.324557663145294e-004	1.036578e+000	5.000000e+000
2.334557663145294e-004	9.420187e-001	5.000000e+000
2.344557663145294e-004	8.530247e-001	5.000000e+000
2.354557663145294e-004	7.697858e-001	5.000000e+000
2.364557663145294e-004	6.923978e-001	5.000000e+000
2.374557663145294e-004	6.208661e-001	5.000000e+000
2.384557663145294e-004	5.551121e-001	5.000000e+000
2.394557663145294e-004	4.949840e-001	5.000000e+000
2.404557663145293e-004	4.402688e-001	5.000000e+000
2.414557663145293e-004	3.907049e-001	5.000000e+000
2.424557663145293e-004	3.459952e-001	5.000000e+000
2.434557663145293e-004	3.058189e-001	5.000000e+000
2.444557663145293e-004	2.698425e-001	5.000000e+000
2.454557663145294e-004	2.377293e-001	5.000000e+000
2.464557663145294e-004	2.091462e-001	5.000000e+000
2.474557663145294e-004	1.837709e-001	5.000000e+000
2.484557663145294e-004	1.612951e-001	5.000000e+000
2.494557663145295e-004	1.414286e-001	5.000000e+000
2.504557663145295e-004	1.239005e-001	5.000000e+000
2.514557663145295e-004	1.084607e-001	5.000000e+000
2.524557663145295e-004	9.488007e-002	5.000000e+000
2.534557663145296e-004	8.294985e-002	5.000000e+000
2.544557663145296e-004	7.248126e-002	5.000000e+000
2.554557663145296e-004	6.330431e-002	5.000000e+000
2.564557663145296e-004	5.526662e-002	5.000000e+000
2.574557663145297e-004	4.823213e-002	5.000000e+000
2.584557663145297e-004	4.207977e-002	5.000000e+000
2.594557663145297e-004	3.670207e-002	5.000000e+000
2.604557663145297e-004	3.200392e-002	5.000000e+000
2.614557663145298e-004	2.790128e-002	5.000000e+000
2.624557663145298e-004	2.432008e-002	5.000000e+000
2.634557663145298e-004	2.119513e-002	5.000000e+000
2.644557663145298e-004	1.846912e-002	5.000000e+000
2.654557663145298e-004	1.609174e-002	5.000000e+000
2.664557663145299e-004	1.401888e-002	5.000000e+000
2.674557663145299e-004	1.221190e-002	5.000000e+000
2.684557663145299e-004	1.063696e-002	5.000000e+000
2.694557663145299e-004	9.264488e-003	5.000000e+000
2.704557663145300e-004	8.068603e-003	5.000000e+000
2.714557663145300e-004	7.026707e-003	5.000000e+000
2.724557663145300e-004	6.119064e-003	5.000000e+000
2.734557663145300e-004	5.328443e-003	5.000000e+000
2.744557663145301e-004	4.639810e-003	5.000000e+000
2.754557663145301e-004	4.040050e-003	5.000000e+000
2.764557663145301e-004	3.517722e-003	5.000000e+000
2.774557663145301e-004	3.062852e-003	5.000000e+000
2.784557663145302e-004	2.666746e-003	5.000000e+000
2.794557663145302e-004	2.321826e-003	5.000000e+000
2.804557663145302e-004	2.021487e-003	5.000000e+000
2.814557663145302e-004	1.759975e-003	5.000000e+000
2.824557663145303e-004	1.532275e-003	5.000000e+000
2.834557663145303e-004	1.334021e-003	5.000000e+000
2.844557663145303e-004	1.161408e-003	5.000000e+000
2.854557663145303e-004	1.011123e-003	5.000000e+000
2.864557663145304e-004	8.802782e-004	5.000000e+000
2.874557663145304e-004	7.663614e-004	5.000000e+000
2.884557663145304e-004	6.671834e-004	5.000000e+000
2.894557663145304e-004	5.808381e-004	5.000000e+000
2.904557663145305e-004	5.056656e-004	5.000000e+000
2.914557663145305e-004	4.402208e-004	5.000000e+000
2.924557663145305e-004	3.832451e-004	5.000000e+000
2.934557663145305e-004	3.336429e-004	5.000000e+000
2.944557663145306e-004	2.904602e-004	5.000000e+000
2.954557663145306e-004	2.528662e-004	5.000000e+000
2.964557663145306e-004	2.201379e-004	5.000000e+000
2.974557663145306e-004	1.916455e-004	5.000000e+000
2.978192282695977e-004	1.820658e-004	5.000000e+000
2.981826902246647e-004	1.729385e-004	5.000000e+000
2.985461521797318e-004	1.642636e-004	5.000000e+000
2.989096141347989e-004	1.560413e-004	5.000000e+000
2.992730760898659e-004	1.482713e-004	5.000000e+000
2.996365380449330e-004	1.409539e-004	5.000000e+000
3.000000000000000e-004	1.340889e-004	5.000000e+000
3.000010000000000e-004	1.340704e-004	5.000000e+000
3.000010022000026e-004	9.847574e-005	4.989000e+000
3.000010066000076e-004	2.727010e-005	4.967000e+000
3.000010947776082e-004	-1.401171e-003	4.526112e+000
3.000011829552088e-004	-2.826087e-003	4.085224e+000
3.000012711328093e-004	-4.247477e-003	3.644336e+000
3.000013593104099e-004	-5.665341e-003	3.203448e+000
3.000014474880105e-004	-7.079680e-003	2.762560e+000
3.000015356656110e-004	-8.490493e-003	2.321672e+000
3.000016238432116e-004	-9.897780e-003	1.880784e+000
3.000017495283419e-004	-1.186265e-002	1.252358e+000
3.000018163972477e-004	-1.288934e-002	9.180138e-001
3.000018662621885e-004	-1.363669e-002	6.686891e-001
3.000019002701183e-004	-1.413227e-002	4.986494e-001
3.000019365719555e-004	-1.464569e-002	3.171402e-001
3.000019457475854e-004	-1.476897e-002	2.712621e-001
3.000019640988452e-004	-1.500330e-002	1.795058e-001
3.000020000000000e-004	-1.543605e-002	5.679901e-011
3.000020001489203e-004	-1.543597e-002	0.000000e+000
3.000020004467610e-004	-1.543580e-002	0.000000e+000
3.000020022338048e-004	-1.543477e-002	0.000000e+000
3.000020046165300e-004	-1.543341e-002	0.000000e+000
3.000020093819803e-004	-1.543068e-002	0.000000e+000
3.000020189128809e-004	-1.542522e-002	0.000000e+000
3.000020379746822e-004	-1.541431e-002	0.000000e+000
3.000020760982847e-004	-1.539250e-002	0.000000e+000
3.000021523454897e-004	-1.534885e-002	0.000000e+000
