time	V(1_a1)	V(2_a0)	V(3_b1)	V(4_b0)	V(5_c0)	V(6_q1)	V(7_q0)
0.000000000000000e+000	0.000000e+000	0.000000e+000	0.000000e+000	0.000000e+000	3.568795e-009	1.427517e-008	1.427517e-008
4.999979999999960e-004	0.000000e+000	0.000000e+000	0.000000e+000	0.000000e+000	3.568790e-009	1.427517e-008	1.427517e-008
4.999990000000000e-004	0.000000e+000	0.000000e+000	0.000000e+000	0.000000e+000	3.785414e-008	1.805482e-006	1.908803e-004
4.999990035790894e-004	0.000000e+000	0.000000e+000	0.000000e+000	1.789545e-002	7.238499e-008	3.609009e-006	3.818643e-004
4.999990107372681e-004	0.000000e+000	0.000000e+000	0.000000e+000	5.368634e-002	2.099418e-007	1.079408e-005	1.133643e-003
4.999990250536254e-004	0.000000e+000	0.000000e+000	0.000000e+000	1.252681e-001	4.844248e-007	2.513999e-005	2.532727e-003
4.999990536863402e-004	0.000000e+000	0.000000e+000	0.000000e+000	2.684317e-001	1.031447e-006	5.376149e-005	4.769500e-003
4.999990740516143e-004	0.000000e+000	0.000000e+000	0.000000e+000	3.702581e-001	1.418827e-006	7.405753e-005	5.710718e-003
4.999990951065885e-004	0.000000e+000	0.000000e+000	0.000000e+000	4.755329e-001	1.817474e-006	9.497341e-005	6.239519e-003
4.999991483864635e-004	0.000000e+000	0.000000e+000	0.000000e+000	7.419323e-001	2.816729e-006	1.475512e-004	7.427063e-003
4.999992142327823e-004	0.000000e+000	0.000000e+000	0.000000e+000	1.071164e+000	4.036603e-006	2.119731e-004	8.893963e-003
4.999992685279728e-004	0.000000e+000	0.000000e+000	0.000000e+000	1.342640e+000	5.036323e-006	2.649530e-004	1.010237e-002
4.999993394296888e-004	0.000000e+000	0.000000e+000	0.000000e+000	1.697148e+000	6.343130e-006	3.344183e-004	1.167854e-002
4.999993661534876e-004	0.000000e+000	0.000000e+000	0.000000e+000	1.830767e+000	6.840067e-006	3.609309e-004	1.227121e-002
4.999994730486830e-004	0.000000e+000	0.000000e+000	0.000000e+000	2.365243e+000	8.795716e-006	4.657778e-004	1.458326e-002
4.999996339105674e-004	0.000000e+000	0.000000e+000	0.000000e+000	3.169553e+000	1.163850e-005	6.194751e-004	1.805723e-002
4.999997650306157e-004	0.000000e+000	0.000000e+000	0.000000e+000	3.825153e+000	1.384595e-005	7.403063e-004	2.084786e-002
5.000000000000000e-004	0.000000e+000	0.000000e+000	0.000000e+000	5.000000e+000	1.768671e-005	9.522642e-004	2.580733e-002
5.000000008178069e-004	0.000000e+000	0.000000e+000	0.000000e+000	5.000000e+000	1.768554e-005	9.522579e-004	2.580906e-002
5.000000024534206e-004	0.000000e+000	0.000000e+000	0.000000e+000	5.000000e+000	1.768320e-005	9.522454e-004	2.581252e-002
5.000004805199562e-004	0.000000e+000	0.000000e+000	0.000000e+000	5.000000e+000	1.700995e-005	9.482699e-004	2.676772e-002
5.000009585864917e-004	0.000000e+000	0.000000e+000	0.000000e+000	5.000000e+000	1.635433e-005	9.438662e-004	2.764156e-002
5.000014366530272e-004	0.000000e+000	0.000000e+000	0.000000e+000	5.000000e+000	1.571635e-005	9.390344e-004	2.843403e-002
5.000019147195628e-004	0.000000e+000	0.000000e+000	0.000000e+000	5.000000e+000	1.509600e-005	9.337745e-004	2.914514e-002
5.000023927860984e-004	0.000000e+000	0.000000e+000	0.000000e+000	5.000000e+000	1.449329e-005	9.280865e-004	2.977489e-002
5.000028708526339e-004	0.000000e+000	0.000000e+000	0.000000e+000	5.000000e+000	1.390822e-005	9.219703e-004	3.032327e-002
5.000033489191694e-004	0.000000e+000	0.000000e+000	0.000000e+000	5.000000e+000	1.334079e-005	9.154261e-004	3.079029e-002
5.000066986561457e-004	0.000000e+000	0.000000e+000	0.000000e+000	5.000000e+000	9.664296e-006	8.645456e-004	3.291113e-002
5.000104898632555e-004	0.000000e+000	0.000000e+000	0.000000e+000	5.000000e+000	6.122943e-006	7.977500e-004	3.307609e-002
5.000143196772589e-004	0.000000e+000	0.000000e+000	0.000000e+000	5.000000e+000	3.160701e-006	7.239143e-004	3.134764e-002
5.000169917004203e-004	0.000000e+000	0.000000e+000	0.000000e+000	5.000000e+000	1.457718e-006	6.701362e-004	2.909093e-002
5.000199192005537e-004	0.000000e+000	0.000000e+000	0.000000e+000	5.000000e+000	-7.315177e-008	6.103754e-004	2.562143e-002
5.000234804775680e-004	0.000000e+000	0.000000e+000	0.000000e+000	5.000000e+000	-1.557406e-006	5.385940e-004	2.049595e-002
5.000286319232095e-004	0.000000e+000	0.000000e+000	0.000000e+000	5.000000e+000	-3.137182e-006	4.381885e-004	1.211424e-002
5.000340113389520e-004	0.000000e+000	0.000000e+000	0.000000e+000	5.000000e+000	-4.240022e-006	3.388432e-004	2.537281e-003
5.000384183182707e-004	0.000000e+000	0.000000e+000	0.000000e+000	5.000000e+000	-4.760046e-006	2.637528e-004	-5.935536e-003
5.000430940983076e-004	0.000000e+000	0.000000e+000	0.000000e+000	5.000000e+000	-5.004641e-006	1.914758e-004	-1.539286e-002
5.000476473884778e-004	0.000000e+000	0.000000e+000	0.000000e+000	5.000000e+000	-5.013083e-006	1.286437e-004	-2.478937e-002
5.000538853280958e-004	0.000000e+000	0.000000e+000	0.000000e+000	5.000000e+000	-4.738337e-006	5.576685e-005	-3.764347e-002
5.000663612073317e-004	0.000000e+000	0.000000e+000	0.000000e+000	5.000000e+000	-3.763960e-006	-6.008827e-005	-6.299553e-002
5.000787309134903e-004	0.000000e+000	0.000000e+000	0.000000e+000	5.000000e+000	-2.593142e-006	-1.440334e-004	-8.757823e-002
5.000904670015416e-004	0.000000e+000	0.000000e+000	0.000000e+000	5.000000e+000	-1.490571e-006	-1.955701e-004	-1.094981e-001
5.001037007552613e-004	0.000000e+000	0.000000e+000	0.000000e+000	5.000000e+000	-4.304590e-007	-2.295754e-004	-1.306844e-001
5.001157995833628e-004	0.000000e+000	0.000000e+000	0.000000e+000	5.000000e+000	3.126065e-007	-2.447601e-004	-1.445536e-001
5.001277645037467e-004	0.000000e+000	0.000000e+000	0.000000e+000	5.000000e+000	8.262857e-007	-2.486238e-004	-1.509899e-001
5.001397820106812e-004	0.000000e+000	0.000000e+000	0.000000e+000	5.000000e+000	1.155116e-006	-2.445308e-004	-1.493287e-001
5.001518522475189e-004	0.000000e+000	0.000000e+000	0.000000e+000	5.000000e+000	1.328271e-006	-2.342552e-004	-1.396202e-001
5.001629127849660e-004	0.000000e+000	0.000000e+000	0.000000e+000	5.000000e+000	1.371105e-006	-2.209258e-004	-1.240554e-001
5.001749750341982e-004	0.000000e+000	0.000000e+000	0.000000e+000	5.000000e+000	1.326121e-006	-2.037565e-004	-1.009646e-001
5.001873222562266e-004	0.000000e+000	0.000000e+000	0.000000e+000	5.000000e+000	1.213294e-006	-1.847048e-004	-7.066435e-002
5.002120167002835e-004	0.000000e+000	0.000000e+000	0.000000e+000	5.000000e+000	9.097645e-007	-1.459777e-004	5.882282e-003
5.002378643078267e-004	0.000000e+000	0.000000e+000	0.000000e+000	5.000000e+000	5.751312e-007	-1.070758e-004	1.056887e-001
5.002538944617252e-004	0.000000e+000	0.000000e+000	0.000000e+000	5.000000e+000	3.845398e-007	-8.498083e-005	1.819612e-001
5.002700881109910e-004	0.000000e+000	0.000000e+000	0.000000e+000	5.000000e+000	2.256530e-007	-6.529927e-005	2.705528e-001
5.002925571759160e-004	0.000000e+000	0.000000e+000	0.000000e+000	5.000000e+000	5.404688e-008	-4.168466e-005	4.040068e-001
5.003132448687877e-004	0.000000e+000	0.000000e+000	0.000000e+000	5.000000e+000	-5.839003e-008	-2.359204e-005	5.376559e-001
5.003371627355727e-004	0.000000e+000	0.000000e+000	0.000000e+000	5.000000e+000	-1.407553e-007	-6.779445e-006	7.051854e-001
5.003563751140775e-004	0.000000e+000	0.000000e+000	0.000000e+000	5.000000e+000	-1.775891e-007	3.872930e-006	8.482037e-001
5.003752411712983e-004	0.000000e+000	0.000000e+000	0.000000e+000	5.000000e+000	-1.922350e-007	1.189545e-005	9.947317e-001
5.003957503973849e-004	0.000000e+000	0.000000e+000	0.000000e+000	5.000000e+000	-1.914994e-007	1.825424e-005	1.160142e+000
5.004299186872849e-004	0.000000e+000	0.000000e+000	0.000000e+000	5.000000e+000	-1.701389e-007	2.500208e-005	1.448138e+000
5.004726326014221e-004	0.000000e+000	0.000000e+000	0.000000e+000	5.000000e+000	-1.296746e-007	2.916997e-005	1.822402e+000
5.005101054784741e-004	0.000000e+000	0.000000e+000	0.000000e+000	5.000000e+000	-9.154117e-008	2.979086e-005	2.156916e+000
5.005502269546487e-004	0.000000e+000	0.000000e+000	0.000000e+000	5.000000e+000	-5.589694e-008	2.830510e-005	2.511462e+000
5.005937712487624e-004	0.000000e+000	0.000000e+000	0.000000e+000	5.000000e+000	-2.734787e-008	2.544158e-005	2.876368e+000
5.006555735553351e-004	0.000000e+000	0.000000e+000	0.000000e+000	5.000000e+000	-1.689703e-009	2.064647e-005	3.342015e+000
5.007166874670239e-004	0.000000e+000	0.000000e+000	0.000000e+000	5.000000e+000	1.132412e-008	1.603574e-005	3.728253e+000
5.007897186544885e-004	0.000000e+000	0.000000e+000	0.000000e+000	5.000000e+000	1.633149e-008	1.131106e-005	4.089539e+000
5.008625223098705e-004	0.000000e+000	0.000000e+000	0.000000e+000	5.000000e+000	1.584423e-008	7.671203e-006	4.356028e+000
5.009437615447719e-004	0.000000e+000	0.000000e+000	0.000000e+000	5.000000e+000	1.290247e-008	4.834443e-006	4.561691e+000
5.010437417227735e-004	0.000000e+000	0.000000e+000	0.000000e+000	5.000000e+000	9.121591e-009	2.569869e-006	4.730294e+000
5.011295589362420e-004	0.000000e+000	0.000000e+000	0.000000e+000	5.000000e+000	6.627199e-009	1.384657e-006	4.824084e+000
5.012093253904025e-004	0.000000e+000	0.000000e+000	0.000000e+000	5.000000e+000	5.084934e-009	7.368506e-007	4.880061e+000
5.012720643424293e-004	0.000000e+000	0.000000e+000	0.000000e+000	5.000000e+000	4.325916e-009	4.283691e-007	4.909639e+000
5.013439037978840e-004	0.000000e+000	0.000000e+000	0.000000e+000	5.000000e+000	3.830435e-009	2.235262e-007	4.932801e+000
5.014539533252098e-004	0.000000e+000	0.000000e+000	0.000000e+000	5.000000e+000	3.433955e-009	4.800946e-008	4.957988e+000
5.015247532166010e-004	0.000000e+000	0.000000e+000	0.000000e+000	5.000000e+000	3.326655e-009	-8.887501e-009	4.969320e+000
5.016046697056863e-004	0.000000e+000	0.000000e+000	0.000000e+000	5.000000e+000	3.304089e-009	-3.615853e-008	4.978100e+000
5.016775436093633e-004	0.000000e+000	0.000000e+000	0.000000e+000	5.000000e+000	3.318464e-009	-4.653627e-008	4.983906e+000
5.017585192224295e-004	0.000000e+000	0.000000e+000	0.000000e+000	5.000000e+000	3.352519e-009	-4.697248e-008	4.988493e+000
5.018489224599399e-004	0.000000e+000	0.000000e+000	0.000000e+000	5.000000e+000	3.395263e-009	-4.079492e-008	4.992059e+000
5.019596508853726e-004	0.000000e+000	0.000000e+000	0.000000e+000	5.000000e+000	3.442875e-009	-3.057344e-008	4.994940e+000
5.020901803985074e-004	0.000000e+000	0.000000e+000	0.000000e+000	5.000000e+000	3.486374e-009	-1.918614e-008	4.997025e+000
5.022488030188945e-004	0.000000e+000	0.000000e+000	0.000000e+000	5.000000e+000	3.521516e-009	-8.372975e-009	4.998440e+000
5.024381478353587e-004	0.000000e+000	0.000000e+000	0.000000e+000	5.000000e+000	3.545319e-009	2.789149e-010	4.999284e+000
5.026756398870549e-004	0.000000e+000	0.000000e+000	0.000000e+000	5.000000e+000	3.559276e-009	6.574199e-009	4.999735e+000
5.029914084702012e-004	0.000000e+000	0.000000e+000	0.000000e+000	5.000000e+000	3.565913e-009	1.069744e-008	4.999934e+000
5.034859353025157e-004	0.000000e+000	0.000000e+000	0.000000e+000	5.000000e+000	3.568338e-009	1.311762e-008	4.999998e+000
8.803523607238665e-004	0.000000e+000	0.000000e+000	0.000000e+000	5.000000e+000	3.568793e-009	1.427517e-008	5.000000e+000
9.999980000000119e-004	0.000000e+000	0.000000e+000	0.000000e+000	5.000000e+000	3.568793e-009	1.427517e-008	5.000000e+000
9.999990000000001e-004	0.000000e+000	0.000000e+000	0.000000e+000	5.000000e+000	3.568796e-009	1.427517e-008	5.000000e+000
9.999990035790894e-004	0.000000e+000	0.000000e+000	1.789545e-002	5.000000e+000	1.439812e-005	2.967500e-005	5.000000e+000
9.999990107372680e-004	0.000000e+000	0.000000e+000	5.368634e-002	5.000000e+000	4.315507e-005	8.798781e-005	5.000000e+000
9.999990250536251e-004	0.000000e+000	0.000000e+000	1.252681e-001	5.000000e+000	1.005193e-004	1.961447e-004	5.000000e+000
9.999990536863391e-004	0.000000e+000	0.000000e+000	2.684317e-001	5.000000e+000	2.148276e-004	3.681828e-004	5.000000e+000
9.999990743415396e-004	0.000000e+000	0.000000e+000	3.717077e-001	5.000000e+000	2.969118e-004	4.414002e-004	5.000000e+000
9.999990956062555e-004	0.000000e+000	0.000000e+000	4.780313e-001	5.000000e+000	3.810226e-004	4.824954e-004	5.000000e+000
9.999991495314104e-004	0.000000e+000	0.000000e+000	7.476571e-001	5.000000e+000	5.924269e-004	5.751384e-004	5.000000e+000
9.999992167633136e-004	0.000000e+000	0.000000e+000	1.083817e+000	5.000000e+000	8.530508e-004	6.905572e-004	5.000000e+000
9.999992710126727e-004	0.000000e+000	0.000000e+000	1.355063e+000	5.000000e+000	1.062402e-003	7.835676e-004	5.000000e+000
9.999993388321367e-004	0.000000e+000	0.000000e+000	1.694161e+000	5.000000e+000	1.325139e-003	8.995855e-004	5.000000e+000
9.999994073253086e-004	0.000000e+000	0.000000e+000	2.036627e+000	5.000000e+000	1.590906e-003	1.015169e-003	5.000000e+000
9.999994711603279e-004	0.000000e+000	0.000000e+000	2.355802e+000	5.000000e+000	1.835737e-003	1.121174e-003	5.000000e+000
9.999995549342439e-004	0.000000e+000	0.000000e+000	2.774671e+000	5.000000e+000	2.151130e-003	1.260376e-003	5.000000e+000
9.999997612832347e-004	0.000000e+000	0.000000e+000	3.806416e+000	5.000000e+000	2.895599e-003	1.599655e-003	5.000000e+000
1.000000000000000e-003	0.000000e+000	0.000000e+000	5.000000e+000	5.000000e+000	3.722689e-003	1.986732e-003	5.000000e+000
1.000000000817561e-003	0.000000e+000	0.000000e+000	5.000000e+000	4.995912e+000	3.722482e-003	1.986123e-003	4.999937e+000
1.000000002452683e-003	0.000000e+000	0.000000e+000	5.000000e+000	4.987737e+000	3.722068e-003	1.984907e-003	4.999810e+000
1.000000049925970e-003	0.000000e+000	0.000000e+000	5.000000e+000	4.750370e+000	3.710068e-003	1.948107e-003	4.996133e+000
1.000000097399257e-003	0.000000e+000	0.000000e+000	5.000000e+000	4.513004e+000	3.698088e-003	1.908923e-003	4.992443e+000
1.000000144872544e-003	0.000000e+000	0.000000e+000	5.000000e+000	4.275638e+000	3.686128e-003	1.867357e-003	4.988740e+000
1.000000192345830e-003	0.000000e+000	0.000000e+000	5.000000e+000	4.038271e+000	3.674187e-003	1.823408e-003	4.985024e+000
1.000000239819117e-003	0.000000e+000	0.000000e+000	5.000000e+000	3.800905e+000	3.662266e-003	1.777075e-003	4.981295e+000
1.000000287292404e-003	0.000000e+000	0.000000e+000	5.000000e+000	3.563538e+000	3.650365e-003	1.728359e-003	4.977553e+000
1.000000334765690e-003	0.000000e+000	0.000000e+000	5.000000e+000	3.326172e+000	3.638483e-003	1.677260e-003	4.973799e+000
1.000000415605323e-003	0.000000e+000	0.000000e+000	5.000000e+000	2.921973e+000	3.618287e-003	1.593467e-003	4.967592e+000
1.000000467640276e-003	0.000000e+000	0.000000e+000	5.000000e+000	2.661799e+000	3.605327e-003	1.539071e-003	4.963709e+000
1.000000533571740e-003	0.000000e+000	0.000000e+000	5.000000e+000	2.332141e+000	3.588945e-003	1.469776e-003	4.958824e+000
1.000000590619018e-003	0.000000e+000	0.000000e+000	5.000000e+000	2.046905e+000	3.574803e-003	1.409634e-003	4.954601e+000
1.000000651329184e-003	0.000000e+000	0.000000e+000	5.000000e+000	1.743354e+000	3.559789e-003	1.345437e-003	4.950119e+000
1.000000724098738e-003	0.000000e+000	0.000000e+000	5.000000e+000	1.379506e+000	3.541835e-003	1.268287e-003	4.944765e+000
1.000000777504924e-003	0.000000e+000	0.000000e+000	5.000000e+000	1.112475e+000	3.528692e-003	1.211525e-003	4.940853e+000
1.000000847669707e-003	0.000000e+000	0.000000e+000	5.000000e+000	7.616515e-001	3.511460e-003	1.136813e-003	4.935739e+000
1.000000883671891e-003	0.000000e+000	0.000000e+000	5.000000e+000	5.816405e-001	3.502641e-003	1.098417e-003	4.933195e+000
1.000000931674804e-003	0.000000e+000	0.000000e+000	5.000000e+000	3.416260e-001	3.490906e-003	1.047151e-003	4.930192e+000
1.000001000000000e-003	0.000000e+000	0.000000e+000	5.000000e+000	0.000000e+000	3.474226e-003	9.741082e-004	4.926538e+000
1.000001005068973e-003	0.000000e+000	0.000000e+000	5.000000e+000	0.000000e+000	3.473097e-003	9.748733e-004	4.926692e+000
1.000001015206918e-003	0.000000e+000	0.000000e+000	5.000000e+000	0.000000e+000	3.470840e-003	9.764063e-004	4.926961e+000
1.000001035482809e-003	0.000000e+000	0.000000e+000	5.000000e+000	0.000000e+000	3.466330e-003	9.794720e-004	4.927375e+000
1.000001066215775e-003	0.000000e+000	0.000000e+000	5.000000e+000	0.000000e+000	3.459499e-003	9.841041e-004	4.927818e+000
1.000001100099469e-003	0.000000e+000	0.000000e+000	5.000000e+000	0.000000e+000	3.451980e-003	9.891819e-004	4.928139e+000
1.000001160032688e-003	0.000000e+000	0.000000e+000	5.000000e+000	0.000000e+000	3.438709e-003	9.980891e-004	4.928480e+000
1.000001244910990e-003	0.000000e+000	0.000000e+000	5.000000e+000	0.000000e+000	3.419979e-003	1.010543e-003	4.928734e+000
1.000001387221656e-003	0.000000e+000	0.000000e+000	5.000000e+000	0.000000e+000	3.388732e-003	1.031026e-003	4.928876e+000
1.000001578106453e-003	0.000000e+000	0.000000e+000	5.000000e+000	0.000000e+000	3.347142e-003	1.057697e-003	4.928819e+000
1.000001888760614e-003	0.000000e+000	0.000000e+000	5.000000e+000	0.000000e+000	3.280220e-003	1.099208e-003	4.928478e+000
1.000002318786229e-003	0.000000e+000	0.000000e+000	5.000000e+000	0.000000e+000	3.189157e-003	1.152828e-003	4.927841e+000
1.000003008475600e-003	0.000000e+000	0.000000e+000	5.000000e+000	0.000000e+000	3.046756e-003	1.230115e-003	4.926758e+000
1.000003966619661e-003	0.000000e+000	0.000000e+000	5.000000e+000	0.000000e+000	2.856300e-003	1.320530e-003	4.925400e+000
1.000005469401653e-003	0.000000e+000	0.000000e+000	5.000000e+000	0.000000e+000	2.573839e-003	1.426845e-003	4.923764e+000
1.000007566655012e-003	0.000000e+000	0.000000e+000	5.000000e+000	0.000000e+000	2.211177e-003	1.511486e-003	4.922458e+000
1.000010792910236e-003	0.000000e+000	0.000000e+000	5.000000e+000	0.000000e+000	1.712198e-003	1.534627e-003	4.922132e+000
1.000014160199174e-003	0.000000e+000	0.000000e+000	5.000000e+000	0.000000e+000	1.252766e-003	1.460771e-003	4.923360e+000
1.000016502412477e-003	0.000000e+000	0.000000e+000	5.000000e+000	0.000000e+000	9.735539e-004	1.347929e-003	4.925093e+000
1.000019036584967e-003	0.000000e+000	0.000000e+000	5.000000e+000	0.000000e+000	7.102789e-004	1.168549e-003	4.927558e+000
1.000022186736898e-003	0.000000e+000	0.000000e+000	5.000000e+000	0.000000e+000	4.237892e-004	8.967774e-004	4.931067e+000
1.000024924149468e-003	0.000000e+000	0.000000e+000	5.000000e+000	0.000000e+000	2.060864e-004	6.320234e-004	4.934638e+000
1.000026916187501e-003	0.000000e+000	0.000000e+000	5.000000e+000	0.000000e+000	6.743232e-005	4.240147e-004	4.937776e+000
1.000029124863238e-003	0.000000e+000	0.000000e+000	5.000000e+000	0.000000e+000	-6.978493e-005	1.822107e-004	4.941756e+000
1.000030739833657e-003	0.000000e+000	0.000000e+000	5.000000e+000	0.000000e+000	-1.598773e-004	-1.340846e-006	4.944842e+000
1.000032869605914e-003	0.000000e+000	0.000000e+000	5.000000e+000	0.000000e+000	-2.639439e-004	-2.536328e-004	4.949032e+000
1.000036091878349e-003	0.000000e+000	0.000000e+000	5.000000e+000	0.000000e+000	-3.982580e-004	-6.528545e-004	4.955491e+000
1.000039538908671e-003	0.000000e+000	0.000000e+000	5.000000e+000	0.000000e+000	-5.170699e-004	-1.099102e-003	4.962485e+000
1.000042336257528e-003	0.000000e+000	0.000000e+000	5.000000e+000	0.000000e+000	-5.934812e-004	-1.472670e-003	4.968194e+000
1.000045935002146e-003	0.000000e+000	0.000000e+000	5.000000e+000	0.000000e+000	-6.642775e-004	-1.959296e-003	4.975515e+000
1.000053132491385e-003	0.000000e+000	0.000000e+000	5.000000e+000	0.000000e+000	-7.452627e-004	-2.924372e-003	4.989946e+000
1.000064083978119e-003	0.000000e+000	0.000000e+000	5.000000e+000	0.000000e+000	-7.741770e-004	-4.350936e-003	5.011178e+000
1.000077928342376e-003	0.000000e+000	0.000000e+000	5.000000e+000	0.000000e+000	-7.138820e-004	-6.066279e-003	5.036258e+000
1.000091266950023e-003	0.000000e+000	0.000000e+000	5.000000e+000	0.000000e+000	-6.024466e-004	-7.545408e-003	5.057806e+000
1.000104087083405e-003	0.000000e+000	0.000000e+000	5.000000e+000	0.000000e+000	-4.775160e-004	-8.635572e-003	5.075445e+000
1.000116345296360e-003	0.000000e+000	0.000000e+000	5.000000e+000	0.000000e+000	-3.608316e-004	-9.186533e-003	5.089287e+000
1.000128485121127e-003	0.000000e+000	0.000000e+000	5.000000e+000	0.000000e+000	-2.559180e-004	-9.130466e-003	5.100201e+000
